Freq.	V(in_ard)
1.00000000000000e+01	(8.04433221452102e+00dB,1.79872351931592e+02°)
1.61414141414141e+02	(8.04099418188438e+00dB,1.77939929453194e+02°)
3.12828282828283e+02	(8.03176933993854e+00dB,1.76009358144218e+02°)
4.64242424242424e+02	(8.01668660134443e+00dB,1.74082361896833e+02°)
6.15656565656566e+02	(7.99579296599642e+00dB,1.72160640700433e+02°)
7.67070707070707e+02	(7.96915298619926e+00dB,1.70245859599067e+02°)
9.18484848484849e+02	(7.93684804188033e+00dB,1.68339638245470e+02°)
1.06989898989899e+03	(7.89897544297144e+00dB,1.66443541215843e+02°)
1.22131313131313e+03	(7.85564737966750e+00dB,1.64559069226063e+02°)
1.37272727272727e+03	(7.80698974403793e+00dB,1.62687651362934e+02°)
1.52414141414141e+03	(7.75314084836357e+00dB,1.60830638414906e+02°)
1.67555555555556e+03	(7.69425006657128e+00dB,1.58989297356542e+02°)
1.82696969696970e+03	(7.63047642526559e+00dB,1.57164807011198e+02°)
1.97838383838384e+03	(7.56198717017421e+00dB,1.55358254888090e+02°)
2.12979797979798e+03	(7.48895633242816e+00dB,1.53570635163974e+02°)
2.28121212121212e+03	(7.41156331710900e+00dB,1.51802847756981e+02°)
2.43262626262626e+03	(7.32999153404962e+00dB,1.50055698421066e+02°)
2.58404040404040e+03	(7.24442708811056e+00dB,1.48329899774503e+02°)
2.73545454545455e+03	(7.15505754320886e+00dB,1.46626073164833e+02°)
2.88686868686869e+03	(7.06207077137612e+00dB,1.44944751265627e+02°)
3.03828282828283e+03	(6.96565389517911e+00dB,1.43286381296987e+02°)
3.18969696969697e+03	(6.86599232904069e+00dB,1.41651328761647e+02°)
3.34111111111111e+03	(6.76326892242549e+00dB,1.40039881591200e+02°)
3.49252525252525e+03	(6.65766320555216e+00dB,1.38452254602007e+02°)
3.64393939393939e+03	(6.54935073629711e+00dB,1.36888594167188e+02°)
3.79535353535353e+03	(6.43850254527611e+00dB,1.35348983019188e+02°)
3.94676767676768e+03	(6.32528467473113e+00dB,1.33833445106407e+02°)
4.09818181818182e+03	(6.20985780579755e+00dB,1.32341950436768e+02°)
4.24959595959596e+03	(6.09237696796067e+00dB,1.30874419850615e+02°)
4.40101010101010e+03	(5.97299132400313e+00dB,1.29430729674588e+02°)
4.55242424242424e+03	(5.85184402346431e+00dB,1.28010716217012e+02°)
4.70383838383838e+03	(5.72907211754706e+00dB,1.26614180073582e+02°)
4.85525252525252e+03	(5.60480652848313e+00dB,1.25240890219711e+02°)
5.00666666666667e+03	(5.47917206657382e+00dB,1.23890587872672e+02°)
5.15808080808081e+03	(5.35228748842880e+00dB,1.22562990112646e+02°)
5.30949494949495e+03	(5.22426559030615e+00dB,1.21257793256978e+02°)
5.46090909090909e+03	(5.09521333088742e+00dB,1.19974675986333e+02°)
5.61232323232323e+03	(4.96523197828337e+00dB,1.18713302225090e+02°)
5.76373737373737e+03	(4.83441727654196e+00dB,1.17473323781333e+02°)
5.91515151515151e+03	(4.70285962740647e+00dB,1.16254382754146e+02°)
6.06656565656565e+03	(4.57064428353860e+00dB,1.15056113717728e+02°)
6.21797979797980e+03	(4.43785154986902e+00dB,1.13878145693218e+02°)
6.36939393939394e+03	(4.30455699016295e+00dB,1.12720103920019e+02°)
6.52080808080808e+03	(4.17083163628357e+00dB,1.11581611438984e+02°)
6.67222222222222e+03	(4.03674219800229e+00dB,1.10462290500115e+02°)
6.82363636363636e+03	(3.90235127153831e+00dB,1.09361763807453e+02°)
6.97505050505050e+03	(3.76771754531182e+00dB,1.08279655613661e+02°)
7.12646464646464e+03	(3.63289600166576e+00dB,1.07215592676512e+02°)
7.27787878787879e+03	(3.49793811355139e+00dB,1.06169205089029e+02°)
7.42929292929293e+03	(3.36289203538493e+00dB,1.05140126994530e+02°)
7.58070707070707e+03	(3.22780278746768e+00dB,1.04127997197211e+02°)
7.73212121212121e+03	(3.09271243352282e+00dB,1.03132459678328e+02°)
7.88353535353535e+03	(2.95766025104021e+00dB,1.02153164027327e+02°)
8.03494949494949e+03	(2.82268289423855e+00dB,1.01189765796700e+02°)
8.18636363636363e+03	(2.68781454955379e+00dB,1.00241926788617e+02°)
8.33777777777778e+03	(2.55308708364593e+00dB,9.93093152808261e+01°)
8.48919191919192e+03	(2.41853018398541e+00dB,9.83916061986429e+01°)
8.64060606060606e+03	(2.28417149213657e+00dB,9.74884812393133e+01°)
8.79202020202020e+03	(2.15003672990051e+00dB,9.65996289544434e+01°)
8.94343434343434e+03	(2.01614981851581e+00dB,9.57247447956894e+01°)
9.09484848484848e+03	(1.88253299114240e+00dB,9.48635311283988e+01°)
9.24626262626262e+03	(1.74920689887435e+00dB,9.40156972174417e+01°)
9.39767676767676e+03	(1.61619071054159e+00dB,9.31809591890476e+01°)
9.54909090909091e+03	(1.48350220656958e+00dB,9.23590399720689e+01°)
9.70050505050505e+03	(1.35115786717093e+00dB,9.15496692217380e+01°)
9.85191919191919e+03	(1.21917295514444e+00dB,9.07525832286505e+01°)
1.00033333333333e+04	(1.08756159355533e+00dB,8.99675248154085e+01°)
1.01547474747475e+04	(9.56336838566643e-01dB,8.91942432230859e+01°)
1.03061616161616e+04	(8.25510747686250e-01dB,8.84324939894245e+01°)
1.04575757575758e+04	(6.95094443686455e-01dB,8.76820388204496e+01°)
1.06089898989899e+04	(5.65098174445015e-01dB,8.69426454569863e+01°)
1.07604040404040e+04	(4.35531368947348e-01dB,8.62140875373783e+01°)
1.09118181818182e+04	(3.06402689679801e-01dB,8.54961444575425e+01°)
1.10632323232323e+04	(1.77720081633906e-01dB,8.47886012293493e+01°)
1.12146464646465e+04	(4.94908181313026e-02dB,8.40912483381822e+01°)
1.13660606060606e+04	(-7.82784563315143e-02dB,8.34038816004153e+01°)
1.15174747474747e+04	(-2.05581686029552e-01dB,8.27263020214422e+01°)
1.16688888888889e+04	(-3.32413366567976e-01dB,8.20583156547920e+01°)
1.18203030303030e+04	(-4.58768509884201e-01dB,8.13997334627934e+01°)
1.19717171717172e+04	(-5.84642611534128e-01dB,8.07503711791645e+01°)
1.21231313131313e+04	(-7.10031620112587e-01dB,8.01100491738501e+01°)
1.22745454545455e+04	(-8.34931908667158e-01dB,7.94785923203657e+01°)
1.24259595959596e+04	(-9.59340247972932e-01dB,7.88558298658580e+01°)
1.25773737373737e+04	(-1.08325378154426e+00dB,7.82415953040508e+01°)
1.27287878787879e+04	(-1.20667000226718e+00dB,7.76357262512019e+01°)
1.28802020202020e+04	(-1.32958673054367e+00dB,7.70380643251683e+01°)
1.30316161616162e+04	(-1.45200209384614e+00dB,7.64484550276433e+01°)
1.31830303030303e+04	(-1.57391450758694e+00dB,7.58667476296073e+01°)
1.33344444444444e+04	(-1.69532265721421e+00dB,7.52927950600117e+01°)
1.34858585858586e+04	(-1.81622548145106e+00dB,7.47264537976943e+01°)
1.36372727272727e+04	(-1.93662215660098e+00dB,7.41675837665138e+01°)
1.37886868686869e+04	(-2.05651208184732e+00dB,7.36160482336727e+01°)
1.39401010101010e+04	(-2.17589486547959e+00dB,7.30717137111891e+01°)
1.40915151515151e+04	(-2.29477031198432e+00dB,7.25344498604692e+01°)
1.42429292929293e+04	(-2.41313840994181e+00dB,7.20041293999228e+01°)
1.43943434343434e+04	(-2.53099932067494e+00dB,7.14806280155581e+01°)
1.45457575757576e+04	(-2.64835336759926e+00dB,7.09638242744903e+01°)
1.46971717171717e+04	(-2.76520102622754e+00dB,7.04535995412890e+01°)
1.48485858585859e+04	(-2.88154291478501e+00dB,6.99498378970915e+01°)
1.50000000000000e+04	(-2.99737978539466e+00dB,6.94524260614052e+01°)
